
<!DOCTYPE html>
<html>
<head>
    <title>I2C A78 Driver - Test Results</title>
    <style>
        body { font-family: Arial, sans-serif; margin: 20px; }
        .header { background-color: #f0f0f0; padding: 10px; border-radius: 5px; }
        .summary { margin: 20px 0; }
        .suite { margin: 15px 0; padding: 10px; border: 1px solid #ddd; border-radius: 5px; }
        .pass { background-color: #d4edda; }
        .fail { background-color: #f8d7da; }
        .output { background-color: #f8f9fa; padding: 10px; margin: 10px 0; font-family: monospace; white-space: pre-wrap; }
        table { border-collapse: collapse; width: 100%; }
        th, td { border: 1px solid #ddd; padding: 8px; text-align: left; }
        th { background-color: #f2f2f2; }
    </style>
</head>
<body>
    <div class="header">
        <h1>I2C A78 Driver - Test Results Report</h1>
        <p>Generated: 2025-08-11T11:57:50.207500</p>
        <p>Platform: Linux x86_64</p>
    </div>
    
    <div class="summary">
        <h2>Test Summary</h2>
        <table>
            <tr><th>Metric</th><th>Value</th></tr>
            <tr><td>Total Tests</td><td>50</td></tr>
            <tr><td>Passed Tests</td><td style="color: green;">50</td></tr>
            <tr><td>Failed Tests</td><td style="color: red;">0</td></tr>
            <tr><td>Success Rate</td><td>100.0%</td></tr>
            <tr><td>Code Coverage</td><td>57.4%</td></tr>
            <tr><td>Execution Time</td><td>4.96s</td></tr>
        </table>
    </div>
    
    <div class="test-suites">
        <h2>Test Suite Details</h2>
        
        <div class="suite pass">
            <h3>Unit Tests</h3>
            <p><strong>Status:</strong> PASSED</p>
            <p><strong>Tests:</strong> 8/8 passed</p>
            <p><strong>Execution Time:</strong> 0.00s</p>
            <div class="output">=== I2C A78 Core Unit Tests ===

Running test: Device Creation
Testing device creation...
[MOCK] Allocated 352 bytes at 0x6141870982b0
✓ Device creation test passed

Running test: Register Access
Testing register access...
[MOCK] Allocated 352 bytes at 0x614187098420
[MOCK] Writing register 0x00: 0x12345678
[MOCK] Reading register 0x00: 0x12345678
[MOCK] Writing register 0x04: 0xabcdef00
[MOCK] Reading register 0x04: 0xabcdef00
✓ Register access test passed

Running test: Speed Configuration
Testing speed configuration...
[MOCK] Allocated 352 bytes at 0x614187098590
✓ Speed configuration test passed

Running test: Bit Definitions
Testing bit definitions...
✓ Bit definitions test passed

Running test: DMA Structure
Testing DMA structure...
[MOCK] Allocated 352 bytes at 0x614187098700
✓ DMA structure test passed

Running test: Statistics Structure
Testing statistics structure...
[MOCK] Allocated 352 bytes at 0x614187098870
✓ Statistics structure test passed

Running test: Address Handling
Testing address handling...
✓ Address handling test passed

Running test: FIFO Status
Testing FIFO status...
✓ FIFO status test passed

=== Test Summary ===
Passed: 8/8
All tests PASSED! ✓
</div></div>
        <div class="suite pass">
            <h3>Integration Tests</h3>
            <p><strong>Status:</strong> PASSED</p>
            <p><strong>Tests:</strong> 8/8 passed</p>
            <p><strong>Execution Time:</strong> 0.00s</p>
            <div class="output">=== I2C A78 Integration Tests ===

Running test: DMA Initialization
Testing DMA initialization...
[MOCK] Allocated 80 bytes at 0x63da335272b0
[MOCK] Allocated 352 bytes at 0x63da33527310
[MOCK] i2c_a78_dma_init called
[MOCK] Initializing completion
[MOCK] Initializing completion
DMA init returned: 0
DMA successfully initialized
[MOCK] i2c_a78_dma_release called
DMA successfully released
✓ DMA initialization test passed

Running test: Message Structure
Testing I2C message structure...
✓ Message structure test passed

Running test: DMA Threshold
Testing DMA threshold logic...
[MOCK] Allocated 80 bytes at 0x63da33527480
[MOCK] Allocated 352 bytes at 0x63da335274e0
✓ DMA threshold test passed

Running test: Address Modes
Testing address modes...
✓ Address modes test passed

Running test: Transfer Directions
Testing transfer directions...
✓ Transfer directions test passed

Running test: Error Conditions
Testing error conditions...
[MOCK] Allocated 80 bytes at 0x63da33527650
[MOCK] Allocated 352 bytes at 0x63da335276b0
✓ Error conditions test passed

Running test: Power Management Integration
Testing power management integration...
[MOCK] Allocated 80 bytes at 0x63da33527820
[MOCK] Allocated 352 bytes at 0x63da33527880
✓ Power management integration test passed

Running test: Register Context Save/Restore
Testing register context save/restore...
[MOCK] Allocated 80 bytes at 0x63da335279f0
[MOCK] Allocated 352 bytes at 0x63da33527a50
[MOCK] Writing register 0x00: 0x12345678
[MOCK] Writing register 0x1c: 0xabcdef00
[MOCK] Reading register 0x00: 0x12345678
[MOCK] Reading register 0x1c: 0xabcdef00
[MOCK] Reading register 0x00: 0x00000000
[MOCK] Reading register 0x1c: 0x00000000
[MOCK] Writing register 0x00: 0x12345678
[MOCK] Writing register 0x1c: 0xabcdef00
[MOCK] Reading register 0x00: 0x12345678
[MOCK] Reading register 0x1c: 0xabcdef00
✓ Register context save/restore test passed

=== Test Summary ===
Passed: 8/8
All tests PASSED! ✓
</div></div>
        <div class="suite fail">
            <h3>Failure Scenario Tests</h3>
            <p><strong>Status:</strong> FAILED</p>
            <p><strong>Tests:</strong> 0/0 passed</p>
            <p><strong>Execution Time:</strong> 0.27s</p>
            <div class="output" style="background-color: #f8d7da;">Errors:\nSegmentation fault (core dumped)
</div></div>
        <div class="suite pass">
            <h3>Stress Tests</h3>
            <p><strong>Status:</strong> PASSED</p>
            <p><strong>Tests:</strong> 7/7 passed</p>
            <p><strong>Execution Time:</strong> 0.02s</p>
            <div class="output">=== I2C A78 Stress Tests ===

Running stress test: Rapid Transfers
Testing rapid consecutive transfers...
[MOCK] Allocated 80 bytes at 0x647654e482b0
[MOCK] Allocated 352 bytes at 0x647654e48310
Completed 1000 transfers in 0.000 seconds
Transfer rate: 100000000.0 transfers/second
Total bytes transferred: 8016 TX, 7984 RX
✓ Rapid transfers stress test passed
Test completed in 0.000 seconds

Running stress test: Variable Message Sizes
Testing variable message sizes...
[MOCK] Allocated 80 bytes at 0x647654e48480
[MOCK] Allocated 352 bytes at 0x647654e484e0
Transfer size 1: PIO
Transfer size 2: PIO
Transfer size 3: PIO
Transfer size 4: PIO
Transfer size 5: PIO
Transfer size 6: PIO
Transfer size 7: PIO
Transfer size 8: PIO
Transfer size 9: PIO
Transfer size 10: PIO
Transfer size 11: PIO
Transfer size 12: PIO
Transfer size 13: PIO
Transfer size 14: PIO
Transfer size 15: PIO
Transfer size 16: PIO
Transfer size 17: PIO
Transfer size 18: PIO
Transfer size 19: PIO
Transfer size 20: PIO
Transfer size 21: PIO
Transfer size 22: PIO
Transfer size 23: PIO
Transfer size 24: PIO
Transfer size 25: PIO
Transfer size 26: PIO
Transfer size 27: PIO
Transfer size 28: PIO
Transfer size 29: PIO
Transfer size 30: PIO
Transfer size 31: PIO
Transfer size 32: DMA
Transfer size 33: DMA
Transfer size 34: DMA
Transfer size 35: DMA
Transfer size 36: DMA
Transfer size 37: DMA
Transfer size 38: DMA
Transfer size 39: DMA
Transfer size 40: DMA
Transfer size 41: DMA
Transfer size 42: DMA
Transfer size 43: DMA
Transfer size 44: DMA
Transfer size 45: DMA
Transfer size 46: DMA
Transfer size 47: DMA
Transfer size 48: DMA
Transfer size 49: DMA
Transfer size 50: DMA
Transfer size 51: DMA
Transfer size 52: DMA
Transfer size 53: DMA
Transfer size 54: DMA
Transfer size 55: DMA
Transfer size 56: DMA
Transfer size 57: DMA
Transfer size 58: DMA
Transfer size 59: DMA
Transfer size 60: DMA
Transfer size 61: DMA
Transfer size 62: DMA
Transfer size 63: DMA
Transfer size 64: DMA
Transfer size 65: DMA
Transfer size 66: DMA
Transfer size 67: DMA
Transfer size 68: DMA
Transfer size 69: DMA
Transfer size 70: DMA
Transfer size 71: DMA
Transfer size 72: DMA
Transfer size 73: DMA
Transfer size 74: DMA
Transfer size 75: DMA
Transfer size 76: DMA
Transfer size 77: DMA
Transfer size 78: DMA
Transfer size 79: DMA
Transfer size 80: DMA
Transfer size 81: DMA
Transfer size 82: DMA
Transfer size 83: DMA
Transfer size 84: DMA
Transfer size 85: DMA
Transfer size 86: DMA
Transfer size 87: DMA
Transfer size 88: DMA
Transfer size 89: DMA
Transfer size 90: DMA
Transfer size 91: DMA
Transfer size 92: DMA
Transfer size 93: DMA
Transfer size 94: DMA
Transfer size 95: DMA
Transfer size 96: DMA
Transfer size 97: DMA
Transfer size 98: DMA
Transfer size 99: DMA
Transfer size 100: DMA
Transfer size 101: DMA
Transfer size 102: DMA
Transfer size 103: DMA
Transfer size 104: DMA
Transfer size 105: DMA
Transfer size 106: DMA
Transfer size 107: DMA
Transfer size 108: DMA
Transfer size 109: DMA
Transfer size 110: DMA
Transfer size 111: DMA
Transfer size 112: DMA
Transfer size 113: DMA
Transfer size 114: DMA
Transfer size 115: DMA
Transfer size 116: DMA
Transfer size 117: DMA
Transfer size 118: DMA
Transfer size 119: DMA
Transfer size 120: DMA
Transfer size 121: DMA
Transfer size 122: DMA
Transfer size 123: DMA
Transfer size 124: DMA
Transfer size 125: DMA
Transfer size 126: DMA
Transfer size 127: DMA
Transfer size 128: DMA
Transfer size 129: DMA
Transfer size 130: DMA
Transfer size 131: DMA
Transfer size 132: DMA
Transfer size 133: DMA
Transfer size 134: DMA
Transfer size 135: DMA
Transfer size 136: DMA
Transfer size 137: DMA
Transfer size 138: DMA
Transfer size 139: DMA
Transfer size 140: DMA
Transfer size 141: DMA
Transfer size 142: DMA
Transfer size 143: DMA
Transfer size 144: DMA
Transfer size 145: DMA
Transfer size 146: DMA
Transfer size 147: DMA
Transfer size 148: DMA
Transfer size 149: DMA
Transfer size 150: DMA
Transfer size 151: DMA
Transfer size 152: DMA
Transfer size 153: DMA
Transfer size 154: DMA
Transfer size 155: DMA
Transfer size 156: DMA
Transfer size 157: DMA
Transfer size 158: DMA
Transfer size 159: DMA
Transfer size 160: DMA
Transfer size 161: DMA
Transfer size 162: DMA
Transfer size 163: DMA
Transfer size 164: DMA
Transfer size 165: DMA
Transfer size 166: DMA
Transfer size 167: DMA
Transfer size 168: DMA
Transfer size 169: DMA
Transfer size 170: DMA
Transfer size 171: DMA
Transfer size 172: DMA
Transfer size 173: DMA
Transfer size 174: DMA
Transfer size 175: DMA
Transfer size 176: DMA
Transfer size 177: DMA
Transfer size 178: DMA
Transfer size 179: DMA
Transfer size 180: DMA
Transfer size 181: DMA
Transfer size 182: DMA
Transfer size 183: DMA
Transfer size 184: DMA
Transfer size 185: DMA
Transfer size 186: DMA
Transfer size 187: DMA
Transfer size 188: DMA
Transfer size 189: DMA
Transfer size 190: DMA
Transfer size 191: DMA
Transfer size 192: DMA
Transfer size 193: DMA
Transfer size 194: DMA
Transfer size 195: DMA
Transfer size 196: DMA
Transfer size 197: DMA
Transfer size 198: DMA
Transfer size 199: DMA
Transfer size 200: DMA
Transfer size 201: DMA
Transfer size 202: DMA
Transfer size 203: DMA
Transfer size 204: DMA
Transfer size 205: DMA
Transfer size 206: DMA
Transfer size 207: DMA
Transfer size 208: DMA
Transfer size 209: DMA
Transfer size 210: DMA
Transfer size 211: DMA
Transfer size 212: DMA
Transfer size 213: DMA
Transfer size 214: DMA
Transfer size 215: DMA
Transfer size 216: DMA
Transfer size 217: DMA
Transfer size 218: DMA
Transfer size 219: DMA
Transfer size 220: DMA
Transfer size 221: DMA
Transfer size 222: DMA
Transfer size 223: DMA
Transfer size 224: DMA
Transfer size 225: DMA
Transfer size 226: DMA
Transfer size 227: DMA
Transfer size 228: DMA
Transfer size 229: DMA
Transfer size 230: DMA
Transfer size 231: DMA
Transfer size 232: DMA
Transfer size 233: DMA
Transfer size 234: DMA
Transfer size 235: DMA
Transfer size 236: DMA
Transfer size 237: DMA
Transfer size 238: DMA
Transfer size 239: DMA
Transfer size 240: DMA
Transfer size 241: DMA
Transfer size 242: DMA
Transfer size 243: DMA
Transfer size 244: DMA
Transfer size 245: DMA
Transfer size 246: DMA
Transfer size 247: DMA
Transfer size 248: DMA
Transfer size 249: DMA
Transfer size 250: DMA
Transfer size 251: DMA
Transfer size 252: DMA
Transfer size 253: DMA
Transfer size 254: DMA
Transfer size 255: DMA
Transfer size 256: DMA
Total bytes in variable size test: 32896
Average transfer size: 128.5 bytes
✓ Variable message sizes stress test passed
Test completed in 0.000 seconds

Running stress test: Address Space Coverage
Testing address space coverage...
[MOCK] Allocated 80 bytes at 0x647654e48760
[MOCK] Allocated 352 bytes at 0x647654e487c0
Testing 7-bit addresses (0x01-0x7F)...
Testing 10-bit addresses (sample)...
✓ Address space coverage stress test passed
Test completed in 0.000 seconds

Running stress test: Register Access Patterns
Testing intensive register access patterns...
[MOCK] Allocated 80 bytes at 0x647654e48930
[MOCK] Allocated 352 bytes at 0x647654e48990
[MOCK] Writing register 0x00: 0x00000000
[MOCK] Reading register 0x00: 0x00000000
[MOCK] Writing register 0x00: 0xffffffff
[MOCK] Reading register 0x00: 0xffffffff
[MOCK] Writing register 0x00: 0xaaaaaaaa
[MOCK] Reading register 0x00: 0xaaaaaaaa
[MOCK] Writing register 0x00: 0x55555555
[MOCK] Reading register 0x00: 0x55555555
[MOCK] Writing register 0x00: 0x12345678
[MOCK] Reading register 0x00: 0x12345678
[MOCK] Writing register 0x00: 0x87654321
[MOCK] Reading register 0x00: 0x87654321
[MOCK] Writing register 0x00: 0xdeadbeef
[MOCK] Reading register 0x00: 0xdeadbeef
[MOCK] Writing register 0x00: 0xcafebabe
[MOCK] Reading register 0x00: 0xcafebabe
[MOCK] Writing register 0x04: 0x00000000
[MOCK] Reading register 0x04: 0x00000000
[MOCK] Writing register 0x04: 0xffffffff
[MOCK] Reading register 0x04: 0xffffffff
[MOCK] Writing register 0x04: 0xaaaaaaaa
[MOCK] Reading register 0x04: 0xaaaaaaaa
[MOCK] Writing register 0x04: 0x55555555
[MOCK] Reading register 0x04: 0x55555555
[MOCK] Writing register 0x04: 0x12345678
[MOCK] Reading register 0x04: 0x12345678
[MOCK] Writing register 0x04: 0x87654321
[MOCK] Reading register 0x04: 0x87654321
[MOCK] Writing register 0x04: 0xdeadbeef
[MOCK] Reading register 0x04: 0xdeadbeef
[MOCK] Writing register 0x04: 0xcafebabe
[MOCK] Reading register 0x04: 0xcafebabe
[MOCK] Writing register 0x08: 0x00000000
[MOCK] Reading register 0x08: 0x00000000
[MOCK] Writing register 0x08: 0xffffffff
[MOCK] Reading register 0x08: 0xffffffff
[MOCK] Writing register 0x08: 0xaaaaaaaa
[MOCK] Reading register 0x08: 0xaaaaaaaa
[MOCK] Writing register 0x08: 0x55555555
[MOCK] Reading register 0x08: 0x55555555
[MOCK] Writing register 0x08: 0x12345678
[MOCK] Reading register 0x08: 0x12345678
[MOCK] Writing register 0x08: 0x87654321
[MOCK] Reading register 0x08: 0x87654321
[MOCK] Writing register 0x08: 0xdeadbeef
[MOCK] Reading register 0x08: 0xdeadbeef
[MOCK] Writing register 0x08: 0xcafebabe
[MOCK] Reading register 0x08: 0xcafebabe
[MOCK] Writing register 0x0c: 0x00000000
[MOCK] Reading register 0x0c: 0x00000000
[MOCK] Writing register 0x0c: 0xffffffff
[MOCK] Reading register 0x0c: 0xffffffff
[MOCK] Writing register 0x0c: 0xaaaaaaaa
[MOCK] Reading register 0x0c: 0xaaaaaaaa
[MOCK] Writing register 0x0c: 0x55555555
[MOCK] Reading register 0x0c: 0x55555555
[MOCK] Writing register 0x0c: 0x12345678
[MOCK] Reading register 0x0c: 0x12345678
[MOCK] Writing register 0x0c: 0x87654321
[MOCK] Reading register 0x0c: 0x87654321
[MOCK] Writing register 0x0c: 0xdeadbeef
[MOCK] Reading register 0x0c: 0xdeadbeef
[MOCK] Writing register 0x0c: 0xcafebabe
[MOCK] Reading register 0x0c: 0xcafebabe
[MOCK] Writing register 0x10: 0x00000000
[MOCK] Reading register 0x10: 0x00000000
[MOCK] Writing register 0x10: 0xffffffff
[MOCK] Reading register 0x10: 0xffffffff
[MOCK] Writing register 0x10: 0xaaaaaaaa
[MOCK] Reading register 0x10: 0xaaaaaaaa
[MOCK] Writing register 0x10: 0x55555555
[MOCK] Reading register 0x10: 0x55555555
[MOCK] Writing register 0x10: 0x12345678
[MOCK] Reading register 0x10: 0x12345678
[MOCK] Writing register 0x10: 0x87654321
[MOCK] Reading register 0x10: 0x87654321
[MOCK] Writing register 0x10: 0xdeadbeef
[MOCK] Reading register 0x10: 0xdeadbeef
[MOCK] Writing register 0x10: 0xcafebabe
[MOCK] Reading register 0x10: 0xcafebabe
[MOCK] Writing register 0x14: 0x00000000
[MOCK] Reading register 0x14: 0x00000000
[MOCK] Writing register 0x14: 0xffffffff
[MOCK] Reading register 0x14: 0xffffffff
[MOCK] Writing register 0x14: 0xaaaaaaaa
[MOCK] Reading register 0x14: 0xaaaaaaaa
[MOCK] Writing register 0x14: 0x55555555
[MOCK] Reading register 0x14: 0x55555555
[MOCK] Writing register 0x14: 0x12345678
[MOCK] Reading register 0x14: 0x12345678
[MOCK] Writing register 0x14: 0x87654321
[MOCK] Reading register 0x14: 0x87654321
[MOCK] Writing register 0x14: 0xdeadbeef
[MOCK] Reading register 0x14: 0xdeadbeef
[MOCK] Writing register 0x14: 0xcafebabe
[MOCK] Reading register 0x14: 0xcafebabe
[MOCK] Writing register 0x18: 0x00000000
[MOCK] Reading register 0x18: 0x00000000
[MOCK] Writing register 0x18: 0xffffffff
[MOCK] Reading register 0x18: 0xffffffff
[MOCK] Writing register 0x18: 0xaaaaaaaa
[MOCK] Reading register 0x18: 0xaaaaaaaa
[MOCK] Writing register 0x18: 0x55555555
[MOCK] Reading register 0x18: 0x55555555
[MOCK] Writing register 0x18: 0x12345678
[MOCK] Reading register 0x18: 0x12345678
[MOCK] Writing register 0x18: 0x87654321
[MOCK] Reading register 0x18: 0x87654321
[MOCK] Writing register 0x18: 0xdeadbeef
[MOCK] Reading register 0x18: 0xdeadbeef
[MOCK] Writing register 0x18: 0xcafebabe
[MOCK] Reading register 0x18: 0xcafebabe
[MOCK] Writing register 0x1c: 0x00000000
[MOCK] Reading register 0x1c: 0x00000000
[MOCK] Writing register 0x1c: 0xffffffff
[MOCK] Reading register 0x1c: 0xffffffff
[MOCK] Writing register 0x1c: 0xaaaaaaaa
[MOCK] Reading register 0x1c: 0xaaaaaaaa
[MOCK] Writing register 0x1c: 0x55555555
[MOCK] Reading register 0x1c: 0x55555555
[MOCK] Writing register 0x1c: 0x12345678
[MOCK] Reading register 0x1c: 0x12345678
[MOCK] Writing register 0x1c: 0x87654321
[MOCK] Reading register 0x1c: 0x87654321
[MOCK] Writing register 0x1c: 0xdeadbeef
[MOCK] Reading register 0x1c: 0xdeadbeef
[MOCK] Writing register 0x1c: 0xcafebabe
[MOCK] Reading register 0x1c: 0xcafebabe
[MOCK] Writing register 0x00: 0x00000000
[MOCK] Reading register 0x00: 0x00000000
[MOCK] Writing register 0x00: 0xffffffff
[MOCK] Reading register 0x00: 0xffffffff
[MOCK] Writing register 0x00: 0xaaaaaaaa
[MOCK] Reading register 0x00: 0xaaaaaaaa
[MOCK] Writing register 0x00: 0x55555555
[MOCK] Reading register 0x00: 0x55555555
[MOCK] Writing register 0x00: 0x12345678
[MOCK] Reading register 0x00: 0x12345678
[MOCK] Writing register 0x00: 0x87654321
[MOCK] Reading register 0x00: 0x87654321
[MOCK] Writing register 0x00: 0xdeadbeef
[MOCK] Reading register 0x00: 0xdeadbeef
[MOCK] Writing register 0x00: 0xcafebabe
[MOCK] Reading register 0x00: 0xcafebabe
[MOCK] Writing register 0x04: 0x00000000
[MOCK] Reading register 0x04: 0x00000000
[MOCK] Writing register 0x04: 0xffffffff
[MOCK] Reading register 0x04: 0xffffffff
[MOCK] Writing register 0x04: 0xaaaaaaaa
[MOCK] Reading register 0x04: 0xaaaaaaaa
[MOCK] Writing register 0x04: 0x55555555
[MOCK] Reading register 0x04: 0x55555555
[MOCK] Writing register 0x04: 0x12345678
[MOCK] Reading register 0x04: 0x12345678
[MOCK] Writing register 0x04: 0x87654321
[MOCK] Reading register 0x04: 0x87654321
[MOCK] Writing register 0x04: 0xdeadbeef
[MOCK] Reading register 0x04: 0xdeadbeef
[MOCK] Writing register 0x04: 0xcafebabe
[MOCK] Reading register 0x04: 0xcafebabe
[MOCK] Writing register 0x08: 0x00000000
[MOCK] Reading register 0x08: 0x00000000
[MOCK] Writing register 0x08: 0xffffffff
[MOCK] Reading register 0x08: 0xffffffff
[MOCK] Writing register 0x08: 0xaaaaaaaa
[MOCK] Reading register 0x08: 0xaaaaaaaa
[MOCK] Writing register 0x08: 0x55555555
[MOCK] Reading register 0x08: 0x55555555
[MOCK] Writing register 0x08: 0x12345678
[MOCK] Reading register 0x08: 0x12345678
[MOCK] Writing register 0x08: 0x87654321
[MOCK] Reading register 0x08: 0x87654321
[MOCK] Writing register 0x08: 0xdeadbeef
[MOCK] Reading register 0x08: 0xdeadbeef
[MOCK] Writing register 0x08: 0xcafebabe
[MOCK] Reading register 0x08: 0xcafebabe
[MOCK] Writing register 0x0c: 0x00000000
[MOCK] Reading register 0x0c: 0x00000000
[MOCK] Writing register 0x0c: 0xffffffff
[MOCK] Reading register 0x0c: 0xffffffff
[MOCK] Writing register 0x0c: 0xaaaaaaaa
[MOCK] Reading register 0x0c: 0xaaaaaaaa
[MOCK] Writing register 0x0c: 0x55555555
[MOCK] Reading register 0x0c: 0x55555555
[MOCK] Writing register 0x0c: 0x12345678
[MOCK] Reading register 0x0c: 0x12345678
[MOCK] Writing register 0x0c: 0x87654321
[MOCK] Reading register 0x0c: 0x87654321
[MOCK] Writing register 0x0c: 0xdeadbeef
[MOCK] Reading register 0x0c: 0xdeadbeef
[MOCK] Writing register 0x0c: 0xcafebabe
[MOCK] Reading register 0x0c: 0xcafebabe
[MOCK] Writing register 0x10: 0x00000000
[MOCK] Reading register 0x10: 0x00000000
[MOCK] Writing register 0x10: 0xffffffff
[MOCK] Reading register 0x10: 0xffffffff
[MOCK] Writing register 0x10: 0xaaaaaaaa
[MOCK] Reading register 0x10: 0xaaaaaaaa
[MOCK] Writing register 0x10: 0x55555555
[MOCK] Reading register 0x10: 0x55555555
[MOCK] Writing register 0x10: 0x12345678
[MOCK] Reading register 0x10: 0x12345678
[MOCK] Writing register 0x10: 0x87654321
[MOCK] Reading register 0x10: 0x87654321
[MOCK] Writing register 0x10: 0xdeadbeef
[MOCK] Reading register 0x10: 0xdeadbeef
[MOCK] Writing register 0x10: 0xcafebabe
[MOCK] Reading register 0x10: 0xcafebabe
[MOCK] Writing register 0x14: 0x00000000
[MOCK] Reading register 0x14: 0x00000000
[MOCK] Writing register 0x14: 0xffffffff
[MOCK] Reading register 0x14: 0xffffffff
[MOCK] Writing register 0x14: 0xaaaaaaaa
[MOCK] Reading register 0x14: 0xaaaaaaaa
[MOCK] Writing register 0x14: 0x55555555
[MOCK] Reading register 0x14: 0x55555555
[MOCK] Writing register 0x14: 0x12345678
[MOCK] Reading register 0x14: 0x12345678
[MOCK] Writing register 0x14: 0x87654321
[MOCK] Reading register 0x14: 0x87654321
[MOCK] Writing register 0x14: 0xdeadbeef
[MOCK] Reading register 0x14: 0xdeadbeef
[MOCK] Writing register 0x14: 0xcafebabe
[MOCK] Reading register 0x14: 0xcafebabe
[MOCK] Writing register 0x18: 0x00000000
[MOCK] Reading register 0x18: 0x00000000
[MOCK] Writing register 0x18: 0xffffffff
[MOCK] Reading register 0x18: 0xffffffff
[MOCK] Writing register 0x18: 0xaaaaaaaa
[MOCK] Reading register 0x18: 0xaaaaaaaa
[MOCK] Writing register 0x18: 0x55555555
[MOCK] Reading register 0x18: 0x55555555
[MOCK] Writing register 0x18: 0x12345678
[MOCK] Reading register 0x18: 0x12345678
[MOCK] Writing register 0x18: 0x87654321
[MOCK] Reading register 0x18: 0x87654321
[MOCK] Writing register 0x18: 0xdeadbeef
[MOCK] Reading register 0x18: 0xdeadbeef
[MOCK] Writing register 0x18: 0xcafebabe
[MOCK] Reading register 0x18: 0xcafebabe
[MOCK] Writing register 0x1c: 0x00000000
[MOCK] Reading register 0x1c: 0x00000000
[MOCK] Writing register 0x1c: 0xffffffff
[MOCK] Reading register 0x1c: 0xffffffff
[MOCK] Writing register 0x1c: 0xaaaaaaaa
[MOCK] Reading register 0x1c: 0xaaaaaaaa
[MOCK] Writing register 0x1c: 0x55555555
[MOCK] Reading register 0x1c: 0x55555555
[MOCK] Writing register 0x1c: 0x12345678
[MOCK] Reading register 0x1c: 0x12345678
[MOCK] Writing register 0x1c: 0x87654321
[MOCK] Reading register 0x1c: 0x87654321
[MOCK] Writing register 0x1c: 0xdeadbeef
[MOCK] Reading register 0x1c: 0xdeadbeef
[MOCK] Writing register 0x1c: 0xcafebabe
[MOCK] Reading register 0x1c: 0xcafebabe
[MOCK] Writing register 0x00: 0x00000000
[MOCK] Reading register 0x00: 0x00000000
[MOCK] Writing register 0x00: 0xffffffff
[MOCK] Reading register 0x00: 0xffffffff
[MOCK] Writing register 0x00: 0xaaaaaaaa
[MOCK] Reading register 0x00: 0xaaaaaaaa
[MOCK] Writing register 0x00: 0x55555555
[MOCK] Reading register 0x00: 0x55555555
[MOCK] Writing register 0x00: 0x12345678
[MOCK] Reading register 0x00: 0x12345678
[MOCK] Writing register 0x00: 0x87654321
[MOCK] Reading register 0x00: 0x87654321
[MOCK] Writing register 0x00: 0xdeadbeef
[MOCK] Reading register 0x00: 0xdeadbeef
[MOCK] Writing register 0x00: 0xcafebabe
[MOCK] Reading register 0x00: 0xcafebabe
[MOCK] Writing register 0x04: 0x00000000
[MOCK] Reading register 0x04: 0x00000000
[MOCK] Writing register 0x04: 0xffffffff
[MOCK] Reading register 0x04: 0xffffffff
[MOCK] Writing register 0x04: 0xaaaaaaaa
[MOCK] Reading register 0x04: 0xaaaaaaaa
[MOCK] Writing register 0x04: 0x55555555
[MOCK] Reading register 0x04: 0x55555555
[MOCK] Writing register 0x04: 0x12345678
[MOCK] Reading register 0x04: 0x12345678
[MOCK] Writing register 0x04: 0x87654321
[MOCK] Reading register 0x04: 0x87654321
[MOCK] Writing register 0x04: 0xdeadbeef
[MOCK] Reading register 0x04: 0xdeadbeef
[MOCK] Writing register 0x04: 0xcafebabe
[MOCK] Reading register 0x04: 0xcafebabe
[MOCK] Writing register 0x08: 0x00000000
[MOCK] Reading register 0x08: 0x00000000
[MOCK] Writing register 0x08: 0xffffffff
[MOCK] Reading register 0x08: 0xffffffff
[MOCK] Writing register 0x08: 0xaaaaaaaa
[MOCK] Reading register 0x08: 0xaaaaaaaa
[MOCK] Writing register 0x08: 0x55555555
